
**** 04/10/25 16:47:36 **** PSpice 23.1.0 (30 January 2024) *** ID# 0 ********

 ** Profile: "BOOST-transient"  [ C:\Users\yuanc\OneDrive - University of Southern California\Documents\COLLEGE\2025-SPRING\ee447\sma


 ****     CIRCUIT DESCRIPTION


******************************************************************************




** Creating circuit file "transient.cir" 
** WARNING: THIS AUTOMATICALLY GENERATED FILE MAY BE OVERWRITTEN BY SUBSEQUENT SIMULATIONS

*Libraries: 
* Profile Libraries :
* Local Libraries :
* From [PSPICE NETLIST] section of C:\cds_spb_home\cdssetup\OrCAD_PSpiceTIPSpice_Install\23.1.0\PSpice.ini file:
.lib "nom_pspti.lib" 
.lib "nom.lib" 

*Analysis directives: 
.TRAN  0 0.8 0.5 
.OPTIONS ADVCONV
.OPTIONS FILEMODELSEARCH
.PROBE64 V(alias(*)) I(alias(*)) W(alias(*)) D(alias(*)) NOISE(alias(*)) 
.INC "..\BOOST.net" 



**** INCLUDING BOOST.net ****
* source POWER
X_U4         VSOURCE VSOURCE 0 N16702 N16657 0 TLV61048 PARAMS:  SS_CURRENT=10N
V_V2         VSOURCE 0 3.7
R_R3         N16657 VBOOST  590k TC=0,0 
R_R4         0 N16657  100k TC=0,0 
D_D1         N16702 VBOOST MBR320 
C_C2         0 VBOOST  10u  TC=0,0 
C_C3         0 VSOURCE  1u  TC=0,0 
C_C4         0 VBOOST  1u  TC=0,0 
X_U5         VBOOST N17416 0 VBOOST +5V N17931 TPS717185_TRANS
C_C5         0 +5V  1u  TC=0,0 
C_C6         0 N17416  0.01u  TC=0,0 
L_L1         VSOURCE N179991  3.3u  
R_R5         N179991 N16702  22m TC=0,0 
R_R6         0 N17931  0 TC=0,0 
-----------------------$
WARNING -- Zero resistance is not allowed and is internally replaced with 1.000e-12 Ohms.
R_R7         0 +5V  50 TC=0,0 
C_C7         0 VSOURCE  4.7u  TC=0,0 
X_U6         N19804 0 VSOURCE +3.3V N20441 TLV75733P_TRANS
R_R8         0 VSOURCE  100k TC=0,0 
C_C8         0 VSOURCE  10u  TC=0,0 
R_R9         N19804 VSOURCE  1k TC=0,0 
C_C9         0 +3.3V  10u  TC=0,0 
R_R10         0 +3.3V  8 TC=0,0 
R_R11         N20441 0  0 TC=0,0 
------------------------$
WARNING -- Zero resistance is not allowed and is internally replaced with 1.000e-12 Ohms.
C_C10         0 0  1u  TC=0,0 

**** RESUMING transient.cir ****
.END

**** 04/10/25 16:47:36 **** PSpice 23.1.0 (30 January 2024) *** ID# 0 ********

 ** Profile: "BOOST-transient"  [ C:\Users\yuanc\OneDrive - University of Southern California\Documents\COLLEGE\2025-SPRING\ee447\sma


 ****     INITIAL TRANSIENT SOLUTION       TEMPERATURE =   27.000 DEG C


******************************************************************************



 NODE   VOLTAGE     NODE   VOLTAGE     NODE   VOLTAGE     NODE   VOLTAGE


(  +5V)    1.8463  (+3.3V)     .0027  (N16657)     .4958 (N16702)    3.6992     

(N17416)    0.0000 (N17931)    0.0000 (N19804)    3.6963 (N20441)    0.0000     

(VBOOST)    3.4207 (N179991)    3.7000                   (VSOURCE)    3.7000    

(X_U6.FB) 494.6E-06                   (X_U5.DES)    1.8500                      

(X_U5.DRV)    1.8500                  (X_U5.FBK)    1.1976                      

(X_U5.REF)    1.2000                  (X_U5.VXX)    1.8507                      

(X_U5.VYY)    1.8507                  (X_U5.VZZ)    1.8463                      

(X_U6.VXX)     .0027                  (X_U6.VYY)     .0027                      

(X_U6.VZZ)     .0027                  (X_U6.LOAD) 340.0E-06                     

(X_U6.DISCH)    1.0000                (X_U6.EN_OK)    1.0000                    

(X_U6.VOUT1)     .0027                (X_U6.V_FBK) 494.6E-06                    

(X_U4.TOP_ON)    1.0000               (X_U6.EN_INT)    3.6963                   

(X_U4.TOP_OFF)    0.0000              (X_U4.TOP_PWM)    0.0000                  

(X_U4.TOP_RST)    1.0000              (X_U6.DISCH_A)    1.0000                  

(X_U6.DISCH_B)    0.0000              (X_U6.ILIM_EN)    0.0000                  

(X_U6.N430233)     .0027              (X_U6.N430261) 662.6E-06                  

(X_U6.N430319)    3.6983              (X_U6.N430499)    1.0000                  

(X_U6.N430701)    1.0000              (X_U6.N431149)     .0027                  

(X_U6.N431153)     .0027              (X_U6.N440312)     .0027                  

(X_U6.N501262)     .0027              (X_U6.N508136)    1.0000                  

(X_U6.N508184)     .0480              (X_U6.N508352)     .0027                  

(X_U6.N508416)    0.0000              (X_U6.N508434)    0.0000                  

(X_U6.N508440)    0.0000              (X_U6.N508446)    1.0000                  

(X_U6.N515880)     .0480              (X_U6.N516314)     .0027                  

(X_U6.U1_DROP)     .0250              (X_U6.VIN_INT)    3.7000                  

(X_U6.VZZ_INT)     .0027              (X_U4.TOP_1MHZ)    1.0000                 

(X_U6.U1_EN_IH)     .9000             (X_U6.X_U2.my5)    1.0000                 

(X_U6.X_U2.qbr)    1.0000             (X_U6.X_U2.qqq) 2.002E-15                 

(X_U4.N16545915)    1.0000            (X_U4.N16547981)    1.0000                

(X_U5.test_node)    1.2000            (X_U6.U1_EN_HYS)     .4000                

(X_U6.U1_N08002)    1.3000            (X_U6.U1_N08110) 658.9E-06                

(X_U6.U1_N08364) 658.9E-06            (X_U6.U1_N08450) 658.9E-06                

(X_U6.U1_N08482) 658.9E-06            (X_U6.U1_N08522)     .5175                

(X_U6.U1_N08530) 120.0E-06            (X_U6.U1_N08622)    1.0000                

(X_U6.U1_N08828)    1.0000            (X_U6.U1_N08864)     .0400                

(X_U6.U1_VIN_OK)    1.0000            (X_U6.X_U2.qint) 2.002E-15                

(X_U4.TOP_600KHZ)    0.0000           (X_U4.TOP_ISENSE) 1.498E-06               

(X_U6.I_FOLDBACK)     .7550           (X_U6.X_U1_U13.1)    1.0000               

(X_U6.X_U1_U15.1)    1.0000           (X_U6.X_U2.myvss)    0.0000               

(X_U6.X_U2.qqqd1)    0.0000           (X_U6.X_U3.YINT1)    1.0000               

(X_U6.X_U3.YINT2)    1.0000           (X_U6.X_U3.YINT3)    0.0000               

(X_U4.TOP_VREF_GM) 20.01E-12          (X_U4.TOP_PFM_FB_H)    1.0000             

(X_U4.TOP_PFM_FB_L)    0.0000         (X_U4.TOP_PFM_SKIP)    0.0000             

(X_U6.X_U2.x3.YINT)    0.0000         (X_U4.TOP_N16553298) 37.00E-09            

(X_U4.TOP_N16553428)    0.0000        (X_U6.X_U1_U13.INM1)   -2.7963            

(X_U6.X_U1_U13.INP1)    0.0000        (X_U6.X_U1_U13.INP2)     .4000            

(X_U6.X_U1_U15.INM1)   -2.4000        (X_U6.X_U1_U15.INP1)    0.0000            

(X_U6.X_U1_U15.INP2)     .0400        (X_U4.TOP_EA_N335215)    2.5000           

(X_U4.TOP_EA_N340568)    0.0000       (X_U4.TOP_EA_N340876) 20.00E-06           

(X_U4.TOP_EA_N341487)-1.500E-06       (X_U4.TOP_EA_N343173) 123.3E-30           

(X_U4.TOP_EA_N344996) 61.67E-18       (X_U4.TOP_EA_N346269) 74.00E-21           

(X_U4.TOP_EA_N353057)    0.0000       (X_U4.TOP_EN_N330859)     .1200           

(X_U4.TOP_EN_N330933)    0.0000       (X_U4.TOP_EN_N331171)     .1200           

(X_U4.TOP_EN_N331209)    2.5500       (X_U4.TOP_EN_N331556)    1.0000           

(X_U4.TOP_EN_N331576)    1.0000       (X_U4.TOP_EN_N333100)    1.2000           

(X_U4.TOP_EN_N334919)    1.0000       (X_U4.TOP_EN_N335250)    1.0000           

(X_U4.TOP_SS_N332934)     .8000       (X_U6.X_U1_U14.YINT1)    1.0000           

(X_U6.X_U1_U14.YINT2)    1.0000       (X_U6.X_U1_U14.YINT3)    1.0000           

(X_U6.X_U1_U16.YINT1)    1.0000       (X_U6.X_U1_U16.YINT2)    1.0000           

(X_U6.X_U1_U16.YINT3)    1.0000       (X_U4.TOP_EA_N3369780)     .2000          

(X_U4.TOP_EA_N3398230)    1.5000      (X_U4.TOP_Freq_N00404)     .0100          

(X_U4.TOP_Offtimer_N1)    2.2085      (X_U4.TOP_PFM_NO_SKIP)    1.0000          

(X_U4.X_TOP_EN_U102.1)    0.0000      (X_U4.X_TOP_EN_U103.1)    1.0000          

(X_U4.TOP_Freq_N330202)    0.0000     (X_U4.TOP_Freq_N330441)     .0100         

(X_U4.TOP_Freq_N330497)    1.2000     (X_U4.TOP_Freq_N332419)     .4000         

(X_U4.TOP_PFM_VREF_PFM)     .0080     (X_U4.TOP_SS_N16550536) 30.02E-12         

(X_U4.TOP_SS_N16553414)    0.0000     (X_U4.X_TOP_PFM_U103.1)    0.0000         

(X_U4.X_TOP_PFM_U107.1)    0.0000     (X_U4.X_TOP_PFM_U109.1)    0.0000         

(X_U4.X_TOP_PFM_U3.MY5)    1.0000     (X_U4.X_TOP_PFM_U3.Qbr)    1.0000         

(X_U4.X_TOP_PFM_U3.Qqq)     .0100     (X_U4.TOP_MOS_N16539745)    0.0000        

(X_U4.TOP_PFM_ENTER_PFM)    1.0000    (X_U4.TOP_PFM_N16548369)     .0020        

(X_U4.TOP_PFM_N16548407)     .2000    (X_U4.TOP_PFM_N16548575)    0.0000        

(X_U4.TOP_PFM_N16548926)     .0020    (X_U4.TOP_PFM_N16549036)    0.0000        

(X_U4.TOP_PFM_N16549798)     .0020    (X_U4.TOP_PFM_N16550440)    0.0000        

(X_U4.X_TOP_Freq_U101.1)    0.0000    (X_U4.X_TOP_Freq_U102.1)    0.0000        

(X_U4.X_TOP_PFM_U3.Qint)     .0100    (X_U4.X_TOP_EA_U103.YINT)    1.0000       

(X_U4.X_TOP_EA_U105.Yint)    0.0000   (X_U4.X_TOP_EN_U102.INM1)    1.2200       

(X_U4.X_TOP_EN_U102.INM2)    1.2800   (X_U4.X_TOP_EN_U102.INP1)   -1.2800       

(X_U4.X_TOP_EN_U103.INM1)    -.5450   (X_U4.X_TOP_EN_U103.INM2)    -.6050       

(X_U4.X_TOP_EN_U103.INP1)     .6050   (X_U4.X_TOP_EN_U104.YINT)    1.0000       

(X_U4.X_TOP_EN_U105.YINT)    0.0000   (X_U4.X_TOP_EN_U106.YINT)    1.0000       

(X_U4.X_TOP_PFM_U3.MYVSS)    0.0000   (X_U4.X_TOP_PFM_U3.Qqqd1)    0.0000       

(X_U4.X_TOP_EN_U107.YINT1)    1.0000  (X_U4.X_TOP_EN_U107.YINT2)    1.0000      

(X_U4.X_TOP_EN_U107.YINT3)    1.0000  (X_U4.X_TOP_EN_U108.YINT1)    1.0000      

(X_U4.X_TOP_EN_U108.YINT2)    1.0000  (X_U4.X_TOP_EN_U108.YINT3)    1.0000      

(X_U4.X_TOP_PFM_U103.INM1)     .0995  (X_U4.X_TOP_PFM_U103.INM2)     .1005      

(X_U4.X_TOP_PFM_U103.INP1)    -.1005  (X_U4.X_TOP_PFM_U104.YINT)    0.0000      

(X_U4.X_TOP_PFM_U105.YINT)    1.0000  (X_U4.X_TOP_PFM_U106.YINT)    1.0000      

(X_U4.X_TOP_PFM_U107.INM1)     .2434  (X_U4.X_TOP_PFM_U107.INM2)     .2444      

(X_U4.X_TOP_PFM_U107.INP1)    -.2444  (X_U4.X_TOP_PFM_U109.INM1)     .2474      

(X_U4.X_TOP_PFM_U109.INM2)     .2484  (X_U4.X_TOP_PFM_U109.INP1)    -.2484      

(X_U4.X_TOP_PFM_U110.YINT)    0.0000  (X_U4.X_TOP_PFM_U111.YINT)    1.0000      

(X_U4.TOP_Offtimer_N330794)    1.5413 (X_U4.TOP_Offtimer_N331039)    1.5413     

(X_U4.TOP_Offtimer_N331188)    1.5413 (X_U4.X_TOP_Freq_U101.INM1)     .1975     

(X_U4.X_TOP_Freq_U101.INM2)     .20